! Created with skrf 1.8.0 (http://scikit-rf.org).
# Hz S RI R 1.0 
!freq ReS11 ImS11
1000000.0 -0.9988127705665877 -3.259637650591501e-05
10999000.0 -0.9992959636823245 0.005715401281965664
20998000.0 -0.9926851682902377 0.017584253155354578
30997000.0 -0.9982325622533988 0.010872608767500853
40996000.0 -0.9988682428426603 0.017234583245022368
50995000.0 -0.9989107744785393 0.022502276205868317
60994000.0 -0.9988434829933054 0.027494249394586237
70993000.0 -0.9987266273056508 0.03237250106721817
80992000.0 -0.9985760416262124 0.03719138859659704
90991000.0 -0.9983975354573543 0.04197459337679814
100990000.0 -0.9981937043593136 0.04673417700905193
110989000.0 -0.9979658637336107 0.051476949699840846
120988000.0 -0.9977147567519652 0.056207044600230474
130987000.0 -0.9974408236194853 0.06092710249705892
140986000.0 -0.9971443585647674 0.06563887746076663
150985000.0 -0.996825553059857 0.07034356429835903
160984000.0 -0.9964845482110937 0.07504199308475615
170983000.0 -0.9961214501670094 0.07973474530346683
180982000.0 -0.9957363407452297 0.08442222668341967
190981000.0 -0.9953292949654491 0.08910472283911594
200980000.0 -0.9949003652925088 0.09378242326924423
210979000.0 -0.994449610642815 0.09845545183272678
220978000.0 -0.9939770758835008 0.10312388043281925
230977000.0 -0.9934828133195641 0.10778773911595992
240976000.0 -0.9929668552888535 0.11244702936661274
250975000.0 -0.9924292525282955 0.1171017263603109
260974000.0 -0.9918700549237134 0.12175178708635317
270973000.0 -0.9912892893841472 0.12639715035484814
280972000.0 -0.9906870148535127 0.13103774757588627
290971000.0 -0.990063259230516 0.13567349010163182
300970000.0 -0.9894180842831956 0.14030429040734355
310969000.0 -0.9887515198321654 0.1449300524501948
320968000.0 -0.9880636119186832 0.14955067006086578
330967000.0 -0.9873544149553629 0.1541660304283387
340966000.0 -0.9866239818635499 0.15877602697586568
350965000.0 -0.9858723507236632 0.16338053779254597
360964000.0 -0.985099580072961 0.16797945326706482
370963000.0 -0.9843057088448433 0.17257263937216488
380962000.0 -0.9834907964796535 0.17715998381330858
390961000.0 -0.9826548988291909 0.18174135640292155
400960000.0 -0.9817980682509505 0.18631663350427408
410959000.0 -0.9809203621561705 0.1908856881148731
420958000.0 -0.9800218396615549 0.19544839375560705
430957000.0 -0.979102547765688 0.20000461548937337
440956000.0 -0.978162561320599 0.20455423165718384
450955000.0 -0.9772019269843367 0.20909710972738532
460954000.0 -0.9762207190442704 0.21363312280714544
470953000.0 -0.9752189856228008 0.21816213965740952
480952000.0 -0.9741968115861942 0.222684028240974
490951000.0 -0.973154239278605 0.22719866957647034
500950000.0 -0.9720913448683964 0.2317059197101154
510949000.0 -0.9710082097504733 0.23620566554326494
520948000.0 -0.969904881946686 0.2406977670721225
530947000.0 -0.9687814344858909 0.24518209072260547
540946000.0 -0.967637942307143 0.2496585269064306
550945000.0 -0.9664744974357761 0.25412693498974326
560944000.0 -0.9652911345178726 0.2585871913805049
570943000.0 -0.9640879644350895 0.2630391716039296
580942000.0 -0.9628650344671332 0.26748275133005406
590941000.0 -0.9616224389064268 0.2719178015618087
600940000.0 -0.9603602412724509 0.2763441847687195
610939000.0 -0.9590785301687313 0.2807618155415206
620938000.0 -0.9577774006842915 0.28517053499785244
630937000.0 -0.9564568944039221 0.2895702317427344
640936000.0 -0.9551171334178068 0.2939607937786678
650935000.0 -0.9537581774821504 0.29834207947617086
660934000.0 -0.9523801157227884 0.30271398023051477
670933000.0 -0.9509830271082006 0.30707639139417586
680932000.0 -0.9495670094829316 0.3114291758498735
690931000.0 -0.9481321467339056 0.315772209453378
700930000.0 -0.9466785069625648 0.320105399451337
710929000.0 -0.9452062138139791 0.3244286118948361
720928000.0 -0.943715330315586 0.32874174182819393
730927000.0 -0.942205959366615 0.3330446711219236
740926000.0 -0.9406781834246237 0.33733728562709275
750925000.0 -0.9391320984787778 0.3416194782714921
760924000.0 -0.9375678140091309 0.34589113333401156
770923000.0 -0.9359853954378878 0.3501521327902104
780922000.0 -0.9343849611676605 0.354402389385894
790921000.0 -0.9327665846241847 0.35864179060815216
800920000.0 -0.9311303957847784 0.36287021147914356
810919000.0 -0.9294764398043613 0.3670875496081216
820918000.0 -0.9278048738646502 0.37129371198075484
830917000.0 -0.9261157465352854 0.3754885911259915
840916000.0 -0.9244092088469997 0.37967208009216913
850915000.0 -0.9226853131724826 0.3838440633244752
860914000.0 -0.9209441865623068 0.3880044800070042
870913000.0 -0.9191859050878761 0.39215318185085024
880912000.0 -0.9174106112428485 0.3962901080297938
890911000.0 -0.9156184113854653 0.40041514529940736
900910000.0 -0.913809347805293 0.4045282018690338
910909000.0 -0.911983592506943 0.4086291674985254
920908000.0 -0.9101412040884279 0.4127179663743802
930907000.0 -0.9082823336739084 0.4167944980153703
940906000.0 -0.9064070278218355 0.4208586617624903
950905000.0 -0.904515445683046 0.42491040066292385
960904000.0 -0.9026076784856957 0.4289495735891305
970903000.0 -0.9006838149129672 0.4329761230563459
980902000.0 -0.8987439853431063 0.436989934258863
990901000.0 -0.8967883367957254 0.440990974440437
1000900000.0 -0.8948169235338674 0.44497912901848163
1010899000.0 -0.8928298452262242 0.4489542978268818
1020898000.0 -0.890827231808317 0.45291640694094965
1030897000.0 -0.8888092575647237 0.45686538882801514
1040896000.0 -0.886775941079951 0.4608011391345349
1050895000.0 -0.8847274344285876 0.46472357987696616
1060894000.0 -0.8826638630792347 0.46863266203330656
1070893000.0 -0.8805853122853715 0.4725282971144684
1080892000.0 -0.8784919361609607 0.4764103882959161
1090891000.0 -0.8763838351624587 0.48027888264638957
1100890000.0 -0.8742610534004208 0.48413370665620425
1110889000.0 -0.8721238139051605 0.48797477035510006
1120888000.0 -0.8699722160559955 0.4918019993121422
1130887000.0 -0.8678062970009863 0.49561533246533157
1140886000.0 -0.8656262350086669 0.49941474318845647
1150885000.0 -0.8634321102062872 0.5032000635604894
1160884000.0 -0.8612240819422416 0.5069713410979865
1170883000.0 -0.8590022517314051 0.5107284052558877
1180882000.0 -0.8567666864324236 0.514471270614439
1190881000.0 -0.8545176022472618 0.5181998378322034
1200880000.0 -0.8522550600722751 0.5219140715954828
1210879000.0 -0.8499791588611365 0.5256138710563072
1220878000.0 -0.8476900767602822 0.5292992114158295
1230877000.0 -0.8453878758142119 0.5329700207369309
1240876000.0 -0.8430727228666699 0.5366262308382983
1250875000.0 -0.8407446777747914 0.5402678063877937
1260874000.0 -0.8384038917224398 0.5438946731020184
1270873000.0 -0.8360505133479406 0.5475068004229348
1280872000.0 -0.8336846168068924 0.5511040967438334
1290871000.0 -0.8313063252291486 0.5546865367902372
1300870000.0 -0.8289158021932775 0.5582540744568182
1310869000.0 -0.8265131138186567 0.5618066661742334
1320868000.0 -0.8240984275779218 0.5653442279178729
1330867000.0 -0.821671821737763 0.5688667346881189
1340866000.0 -0.819233462388623 0.5723741838220413
1350865000.0 -0.8167834206166477 0.5758664501433679
1360864000.0 -0.8143218377024626 0.5793435321454525
1370863000.0 -0.8118488500468921 0.5828054013806349
1380862000.0 -0.8093645767959717 0.586252017714036
1390861000.0 -0.8068690766556497 0.5896832692994205
1400860000.0 -0.8043625893756345 0.5930992232171031
1410859000.0 -0.8018451029262519 0.5964997474032445
1420858000.0 -0.7993168566485882 0.5998848783867639
1430857000.0 -0.796777846090782 0.6032545078523348
1440856000.0 -0.7942283450716092 0.606608715855556
1450855000.0 -0.7916683430962153 0.6099473599397494
1460854000.0 -0.7890979877234774 0.6132704083683662
1470853000.0 -0.7865174861815876 0.6165779210935338
1480852000.0 -0.7839268572312494 0.6198697927651406
1490851000.0 -0.7813262613960326 0.6231460230751373
1500850000.0 -0.7787157800096802 0.6264065472366898
1510849000.0 -0.7760955859900525 0.6296513958499861
1520848000.0 -0.7734657573681797 0.632880466942518
1530847000.0 -0.7708264707717188 0.6360938343433085
1540846000.0 -0.7681778020788794 0.6392914422193582
1550845000.0 -0.7655198709939309 0.6424731795526931
1560844000.0 -0.7628527956081896 0.6456391101156738
1570843000.0 -0.7601767107672939 0.6487892373204776
1580842000.0 -0.7574916957647838 0.6519234549850974
1590841000.0 -0.7547979812537431 0.6550418786596105
1600840000.0 -0.7520955047683601 0.6581442992844893
1610839000.0 -0.7493845747285166 0.6612308820584832
1620838000.0 -0.7466651768627852 0.664301493010838
1630837000.0 -0.7439374998475267 0.6673561715043121
1640836000.0 -0.741201602460561 0.6703949235462395
1650835000.0 -0.7384575979617161 0.6734176469714002
1660834000.0 -0.7357057340308908 0.6764244167829851
1670833000.0 -0.7329459389034493 0.6794151959832265
1680832000.0 -0.7301784590824436 0.6823899719350826
1690831000.0 -0.7274033327354441 0.6853487249774639
1700830000.0 -0.7246207585514509 0.6882915001375568
1710829000.0 -0.7218308354476877 0.6912182620688365
1720828000.0 -0.7190335358775272 0.6941289127682766
1730827000.0 -0.7162292049206429 0.6970236393553518
1740826000.0 -0.7134177771864474 0.6999022380423698
1750825000.0 -0.7105994704777214 0.7027648408270303
1760824000.0 -0.7077743352546723 0.7056114124255614
1770823000.0 -0.7049424895259309 0.7084419457190698
1780822000.0 -0.7021041057891171 0.7112564303903834
1790821000.0 -0.6992592171278317 0.7140548457546327
1800820000.0 -0.6964079762303372 0.7168372522292704
1810819000.0 -0.6935505425206088 0.7196036571965831
1820818000.0 -0.6906869270589909 0.7223540091626701
1830817000.0 -0.6878172719013239 0.725088280195411
1840816000.0 -0.684941782228818 0.7278065902018807
1850815000.0 -0.6820604362327212 0.7305088646513831
1860814000.0 -0.6791733953421527 0.7331951116801232
1870813000.0 -0.676280790718808 0.735865370257893
1880812000.0 -0.6733827369007095 0.7385196966593666
1890811000.0 -0.6704792414733335 0.7411579284602123
1900810000.0 -0.6675705406969934 0.7437802214429341
1910809000.0 -0.6646567256051497 0.746386603129338
1920808000.0 -0.6617378007519431 0.7489770161971885
1930807000.0 -0.6588140162190801 0.7515515064517779
1940806000.0 -0.6558853216548758 0.7541100084948558
1950805000.0 -0.6529519300556019 0.7566526578475502
1960804000.0 -0.650013927519836 0.7591794322669803
1970803000.0 -0.6470714318204114 0.7616903364368004
1980802000.0 -0.6441244843675911 0.7641853292494846
1990801000.0 -0.6411732329599842 0.7666644441354102
2000800000.0 -0.6382177813751182 0.7691278094647451
2010799000.0 -0.6352582307493111 0.7715753336226379
2020798000.0 -0.6322947473357255 0.7740071522499515
2030797000.0 -0.6293272749452217 0.7764231322107985
2040796000.0 -0.6263560097991981 0.7788233276923902
2050795000.0 -0.623381094939166 0.7812078687873452
2060794000.0 -0.6204026033758441 0.7835766859088181
2070793000.0 -0.6174205656306438 0.7859298269041454
2080792000.0 -0.614435141059422 0.7882673246486027
2090791000.0 -0.6114463965284632 0.7905891693786747
2100790000.0 -0.6084544793588862 0.7928954054930996
2110789000.0 -0.6054594293781693 0.7951860731076126
2120788000.0 -0.6024613560010806 0.797461187811378
2130787000.0 -0.5994604378026098 0.799720803302008
2140786000.0 -0.5964566464980575 0.8019649212072093
2150785000.0 -0.5934501377848189 0.8041934929224182
2160784000.0 -0.5904410110895045 0.8064066629465807
2170783000.0 -0.5874293637170653 0.8086044281940069
2180782000.0 -0.5844152556648267 0.8107868121011688
2190781000.0 -0.5813987884751819 0.8129538073167015
2200780000.0 -0.5783801058877498 0.8151055301773324
2210779000.0 -0.575359252345728 0.817241954069254
2220778000.0 -0.5723362841932492 0.819363134603867
2230777000.0 -0.5693113178224689 0.8214689917393765
2240776000.0 -0.5662845242929513 0.823559814016054
2250775000.0 -0.5632558713948159 0.8256353124226714
2260774000.0 -0.5602255329114155 0.8276957756828497
2270773000.0 -0.5571935881252698 0.8297411825918005
2280772000.0 -0.5541600407159685 0.8317714653882478
2290771000.0 -0.5511250703746242 0.8337867238798271
2300770000.0 -0.5480887595646748 0.8357870614772369
2310769000.0 -0.5450511123919035 0.8377723752488035
2320768000.0 -0.5420123026496746 0.8397428696479315
2330767000.0 -0.5389723748304458 0.8416984792709962
2340766000.0 -0.5359314145252477 0.8436392405344901
2350765000.0 -0.5328894611500502 0.8455651532964501
2360764000.0 -0.5298466889860485 0.8474763622977667
2370763000.0 -0.5268031384502122 0.849372867891105
2380762000.0 -0.5237588955490493 0.8512546738176354
2390761000.0 -0.5207139843257157 0.8531218545543731
2400760000.0 -0.5176685468579058 0.8549743786454589
2410759000.0 -0.5146227445101805 0.8568125070055281
2420758000.0 -0.5115764285930029 0.8586359804825712
2430757000.0 -0.508529858970617 0.8604450007896596
2440756000.0 -0.505483087627193 0.8622396604438698
2450755000.0 -0.5024361642881229 0.8640199163460538
2460754000.0 -0.4993891376890336 0.8657858269673215
2470753000.0 -0.4963421018840414 0.8675373898661922
2480752000.0 -0.49329514938786384 0.8692747072858047
2490751000.0 -0.4902484204344177 0.8709978561100926
2500750000.0 -0.4872018766820643 0.8727069101726037
2510749000.0 -0.484155619605947 0.8744017230488961
2520748000.0 -0.481109737869964 0.8760825053821628
2530747000.0 -0.4780643148624421 0.8777492615150533
2540746000.0 -0.4750193506752989 0.8794019337741776
2550745000.0 -0.47197502228585964 0.8810408298885932
2560744000.0 -0.46893133586665053 0.8826656749598836
2570743000.0 -0.46588836086479 0.8842767649359957
2580742000.0 -0.4628462539253257 0.8858741738131981
2590741000.0 -0.45980495087380546 0.8874576940201869
2600740000.0 -0.45676459492700094 0.8890274768661715
2610739000.0 -0.45372522616042427 0.8905835836272366
2620738000.0 -0.45068696034788475 0.8921261834382238
2630737000.0 -0.44764981625893463 0.8936552763093443
2640736000.0 -0.44461377893667847 0.8951706924173325
2650735000.0 -0.4415791426946367 0.8966727345357102
2660734000.0 -0.4385457537210255 0.8981613008949658
2670733000.0 -0.4355137779676144 0.8996366502876358
2680732000.0 -0.4324832410489228 0.9010985146930581
2690731000.0 -0.4294542550688303 0.9025472563513595
2700730000.0 -0.426426744104321 0.9039825767135836
2710729000.0 -0.4234009722376396 0.9054049195330905
2720728000.0 -0.42037692772223234 0.9068141820564901
2730727000.0 -0.4173544843573886 0.9082101954348354
2740726000.0 -0.4143339923474026 0.9095933329783107
2750725000.0 -0.41131535437060707 0.9109634887697168
2760724000.0 -0.4082986592044998 0.9123207765817041
2770723000.0 -0.40528394846608984 0.9136651001684029
2780722000.0 -0.4022712817681988 0.9149966637968354
2790721000.0 -0.39926068551037064 0.9163153372265513
2800720000.0 -0.3962523185847063 0.9176215562252117
2810719000.0 -0.3932461174197819 0.9189148768590769
2820718000.0 -0.3902422206255011 0.9201957851416616
2830717000.0 -0.3872406431451055 0.9214641145102194
2840716000.0 -0.38424141531609424 0.9227198070753904
2850715000.0 -0.38124462488886585 0.9239630581438554
2860714000.0 -0.37825038073757034 0.9251940970512416
2870713000.0 -0.37525863997611303 0.9264126962602661
2880712000.0 -0.3722694842141382 0.9276190153698323
2890711000.0 -0.3692829561975982 0.9288129485082606
2900710000.0 -0.3662991443497003 0.9299948965799614
2910709000.0 -0.36331804964735315 0.9311646895960827
2920708000.0 -0.3603397491201304 0.9323222873665641
2930707000.0 -0.35736431130320184 0.9334679389317626
2940706000.0 -0.3543917400420164 0.934601674081188
2950705000.0 -0.3514220942316141 0.9357234593807775
2960704000.0 -0.34845543889231867 0.9368333408238921
2970703000.0 -0.3454917929646141 0.9379313814664789
2980702000.0 -0.34253125180060506 0.9390176993658244
2990701000.0 -0.3395738115913144 0.940092324564995
3000700000.0 -0.3366195206240563 0.9411553510207717
3010699000.0 -0.33366843975697724 0.9422066582398138
3020698000.0 -0.3307205815981815 0.943246436104797
3030697000.0 -0.32777605579320745 0.9442746724822371
3040696000.0 -0.32483487808362144 0.9452916002339482
3050695000.0 -0.32189705727204176 0.9462972003609447
3060694000.0 -0.31896267442112175 0.9472912994665795
3070693000.0 -0.31603173068833423 0.9482741776685139
3080692000.0 -0.31310429153572045 0.9492458806409092
3090691000.0 -0.31018038600248904 0.9502063364627583
3100690000.0 -0.30726007618403467 0.9511558074088619
3110689000.0 -0.30434336542338314 0.9520940120077674
3120688000.0 -0.3014303432900236 0.9530214218794018
3130687000.0 -0.29852099301524754 0.9539377162512341
3140686000.0 -0.29561538811831384 0.9548431992441944
3150685000.0 -0.292713549652604 0.9557377981958672
3160684000.0 -0.2898155207721249 0.956621564289625
3170683000.0 -0.28692135822111353 0.9574946775707365
3180682000.0 -0.28403102611108266 0.9583569914642589
3190681000.0 -0.281144640488911 0.9592088464328712
3200680000.0 -0.278262193438062 0.960049997031614
3210679000.0 -0.2753837420495036 0.9608806684237334
3220678000.0 -0.27250929985850997 0.9617007852095633
3230677000.0 -0.2696389063817364 0.9625106691875294
3240676000.0 -0.26677258576392265 0.9633099699503465
3250675000.0 -0.26391041370988394 0.9640990904152297
3260674000.0 -0.2610523583266798 0.9648779202662854
3270673000.0 -0.25819850312623693 0.9656465438478871
3280672000.0 -0.25534883784524987 0.9664049336457208
3290671000.0 -0.2525033989708369 0.9671533242391324
3300670000.0 -0.24966221428646568 0.967891539193977
3310669000.0 -0.24682538072658577 0.9686198444361316
3320668000.0 -0.24399284411450645 0.9693383151252962
3330667000.0 -0.24116470504340737 0.9700468005190834
3340666000.0 -0.23834093389087313 0.9707454605273802
3350665000.0 -0.23552153909834417 0.9714344460773696
3360664000.0 -0.2327066187500224 0.9721135584276808
3370663000.0 -0.22989613015673627 0.9727828655817132
3380662000.0 -0.2270901893276786 0.973442728498245
3390661000.0 -0.22428874619315903 0.9740931243755157
3400660000.0 -0.22149182389290617 0.9747339164801125
3410659000.0 -0.21869950156768553 0.975365143876046
3420658000.0 -0.21591171434610001 0.9759869735381458
3430657000.0 -0.21312859605813578 0.9765993851219237
3440656000.0 -0.21035014726986206 0.9772028204852097
3450655000.0 -0.20757632141414445 0.9777966256275914
3460654000.0 -0.2048072321774832 0.9783815071048165
3470653000.0 -0.20204278102687723 0.9789568649183511
3480652000.0 -0.1992831379476221 0.9795233980054663
3490651000.0 -0.1965282184728498 0.9800807428467796
3500650000.0 -0.19377808523718953 0.9806292837240285
3510649000.0 -0.1910327654314427 0.9811686305023588
3520648000.0 -0.18829224445810916 0.9816993313286368
3530647000.0 -0.18555658149338422 0.9822210860885418
3540646000.0 -0.18282575899043307 0.9827339518371896
3550645000.0 -0.1800998543398053 0.983238066972129
3560644000.0 -0.1773788283073653 0.983733542655711
3570643000.0 -0.17466273468463767 0.9842203234847756
3580642000.0 -0.17195155967583747 0.9846986152795774
3590641000.0 -0.16924531552411437 0.985168269022241
3600640000.0 -0.16654410282076032 0.9856294707881881
3610639000.0 -0.16384789287001428 0.9860821780209326
3620638000.0 -0.16115663592137353 0.9865265016614302
3630637000.0 -0.15847042938887762 0.9869625287105694
3640636000.0 -0.15578924521038884 0.9873901635185058
3650635000.0 -0.1531131280014893 0.9878095010511021
3660634000.0 -0.15044212822363856 0.9882208920380585
3670633000.0 -0.14777619014867233 0.9886239879080928
3680632000.0 -0.1451153239016954 0.9890187853165555
3690631000.0 -0.14245965513488867 0.9894058828945322
3700630000.0 -0.1398090526008754 0.9897848875483894
3710629000.0 -0.1371636063634738 0.9901557320594906
3720628000.0 -0.13452339008665787 0.9905188192449258
3730627000.0 -0.13188826923410824 0.9908741143512168
3740626000.0 -0.12925837374366417 0.9912215453409703
3750625000.0 -0.12663370698937232 0.9915611611373378
3760624000.0 -0.12401419478790626 0.9918931252154953
3770623000.0 -0.12139990827189578 0.9922172141985832
3780622000.0 -0.11879092072790454 0.9925338365704228
3790621000.0 -0.11618713748650472 0.9928430006680116
3800620000.0 -0.11358862316355434 0.9931446947965195
3810619000.0 -0.11099539936283342 0.9934385388076201
3820618000.0 -0.10840745780341743 0.9937252199026473
