! Created with skrf 1.8.0 (http://scikit-rf.org).
# GHz S RI R 1.0 
!freq ReS11 ImS11
75.0 0.9979729192537723 -0.0636387085275594
75.175 0.9979155992275588 -0.06453129186877103
75.35 0.9978565112976239 -0.06543860969521247
75.525 0.9977955828717361 -0.0663611443854892
75.7 0.9977327376099171 -0.06729939691040873
75.875 0.9976678951908903 -0.06825388782090394
76.05 0.9976009710607155 -0.06922515829558343
76.225 0.997531876163257 -0.07021377125199173
76.4 0.9974605166505157 -0.07122031252784822
76.575 0.9973867935701712 -0.07224539213417455
76.75 0.9973106025308166 -0.0732896455902314
76.925 0.9972318333390734 -0.0743537353422258
77.1 0.9971503696105162 -0.07543835227599946
77.275 0.9970660883480172 -0.07654421732893922
77.45 0.9969788594874093 -0.07767208320814079
77.625 0.9968885454060538 -0.07882273622712699
77.8 0.9967950003909727 -0.0799969982655779
77.975 0.9966980700625432 -0.08119572886688989
78.15 0.9965975907514698 -0.08241982748134233
78.325 0.9964933888203001 -0.08367023586915451
78.5 0.996385279929519 -0.08494794067592734
78.675 0.9962730682367982 -0.08625397619604312
78.85 0.9961565455291884 -0.08758942733908032
79.025 0.9960354902742791 -0.08895543281765578
79.2 0.9959096665883117 -0.09035318857690292
79.375 0.9957788231099052 -0.09178395148537768
79.55 0.9956426917669887 -0.09324904331375165
79.725 0.99550098643036 -0.09474985502490497
79.9 0.9953534014389683 -0.09628785140576507
80.075 0.995199609981849 -0.09786457607415758
80.25 0.9950392623223613 -0.09948165689295599
80.425 0.9948719838464508 -0.10114081183536999
80.6 0.9946973729154901 -0.10284385534205956
80.775 0.9945149984979352 -0.10459270522069278
80.95 0.994324397559399 -0.10638939014054377
81.125 0.9941250721740442 -0.10823605778699524
81.3 0.9939164863339216 -0.11013498373848304
81.475 0.9936980624067927 -0.1120885811469861
81.65 0.9934691772103289 -0.11409941130467702
81.825 0.9932291576439363 -0.11617019519202207
82.0 0.9929772758286991 -0.11830382611962345
82.175 0.9927127436842382 -0.12050338357967402
82.35 0.9924347068732393 -0.12277214844560533
82.525 0.9921422380219896 -0.12511361967952253
82.7 0.9918343291235698 -0.12753153271727308
82.875 0.9915098830012845 -0.1300298797313309
83.05 0.9911677037038192 -0.13261293200374874
83.225 0.9908064856750061 -0.1352852646588529
83.4 0.9904248015142006 -0.1380517840560414
83.575 0.9900210881191488 -0.14091775817940905
83.75 0.989593630956538 -0.14388885040623944
83.925 0.9891405461750957 -0.14697115710567482
84.1 0.9886597602073988 -0.15017124957103123
84.275 0.9881489864549816 -0.15349622087741047
84.45 0.9876056985780357 -0.15695373835775794
84.625 0.9870270997965659 -0.16055210246713247
84.8 0.9864100875350411 -0.1643003129774026
84.975 0.9857512125640405 -0.1682081435625093
85.15 0.9850466316525457 -0.1722862260315117
85.325 0.9842920525355793 -0.17654614567760052
85.5 0.9834826697310298 -0.18100054947201055
85.675 0.98261308943744 -0.18566326913893402
85.85 0.9816772413510619 -0.1905494615096972
86.025 0.9806682747278708 -0.19567576901832115
86.2 0.9795784354318812 -0.20106050372351286
86.375 0.9783989198704776 -0.20672385890603145
86.55 0.9771197007764145 -0.212688153078865
86.725 0.9757293184724893 -0.2189781122196543
86.9 0.9742146296197464 -0.2256211972215964
87.075 0.9725605033399087 -0.23264798499833594
87.25 0.9707494517720292 -0.24009261348041294
87.425 0.9687611785437901 -0.24799330290277932
87.6 0.9665720237486263 -0.2563929685039286
87.775 0.9641542776422809 -0.2653399430783628
87.95 0.9614753266539053 -0.2748888318634666
88.125 0.9584965836272565 -0.2851015273190901
88.3 0.9551721383278939 -0.29604841739712917
88.475 0.9514470423269294 -0.30780982826018943
88.65 0.9472551119328761 -0.320477751141399
88.825 0.9425160900765845 -0.3341579130005383
89.0 0.9371319474552675 -0.3489722615000235
89.175 0.9309820162622722 -0.36506194534571007
89.35 0.923916523871609 -0.38259087839305617
89.525 0.915747909084412 -0.40174997444998894
89.7 0.9062390295723565 -0.42276211715369105
89.875 0.8950869583643042 -0.44588786217877946
90.05 0.881900444201741 -0.4714317093838586
90.225 0.8661681572406377 -0.4997484355945518
90.4 0.8472133719814929 -0.5312482538094181
90.575 0.8241284684755267 -0.5663980744148256
90.75 0.7956791475063784 -0.6057130941849471
90.925 0.7601630349839543 -0.6497266777724644
91.1 0.7152000296583115 -0.6989135645190925
91.275 0.657423233611133 -0.7535145809542378
91.45 0.5820357531309046 -0.8131553806224708
91.625 0.4822244210217776 -0.8760387771155869
91.8 0.34855828168777103 -0.9372766411514506
91.975 0.16899041257972575 -0.9856050537908457
92.15 -0.06848467890455578 -0.9976361808165104
92.325 -0.36538967974152525 -0.9308328477277807
92.5 -0.6877070401293355 -0.7259538951163318
92.675 -0.9379459311096446 -0.3466991175593097
92.85 -0.9896542138389673 0.14326926539756818
93.025 -0.8114559731491666 0.5843681876690907
93.2 -0.5057830780856574 0.8626352389277424
93.375 -0.19249566382183297 0.9812801599491113
93.55 0.06998922607050906 0.997534239492631
93.725 0.2721762291442073 0.9622364962725289
93.9 0.42347046404041044 0.9059007451153936
94.075 0.5363448142270077 0.8439910678265233
94.25 0.6212976209640374 0.783567749084801
94.425 0.6861124959478694 0.7274892943184244
94.6 0.7363176280176883 0.6766304999571042
94.775 0.7757978837800412 0.6309764385216465
94.95 0.8072932712625873 0.5901458326722422
95.125 0.8327560127747192 0.5536358773932333
95.3 0.8535951675356912 0.5209329604349437
95.475 0.8708420103604686 0.4915593006018331
95.65 0.8852619270001384 0.46508933074574854
95.825 0.8974306981473192 0.4411521890888927
96.0 0.907787072640356 0.4194282266858498
96.175 0.916669448543692 0.3996433171487083
96.35 0.9243417958317459 0.38156273502974714
96.525 0.9310122113798183 0.3649853794717528
96.7 0.9368463663622321 0.3497386388547527
96.875 0.9419773690447443 0.3356739645123557
97.05 0.9465130812759227 0.3226631196250115
97.225 0.9505416048765593 0.31059502935223476
97.4 0.9541354378823125 0.2993731479429021
97.575 0.9573546535525341 0.28891326182193294
97.75 0.9602493540869262 0.27914165631163906
97.925 0.9628615807924662 0.2699935838108271
98.1 0.9652268131792858 0.2614119812386004
98.275 0.9673751544092271 0.25334639340625775
98.45 0.9693322755261231 0.24575206660159973
98.625 0.9711201726485073 0.23858918312860117
98.8 0.9727577781137319 0.2318222127543741
98.975 0.9742614567432275 0.22541936144332264
99.15 0.9756454111694367 0.21935210121812146
99.325 0.9769220146900852 0.2135947678994488
99.5 0.9781020860593225 0.20812421583407414
99.675 0.9791951174350946 0.20291952057471768
99.85 0.980209464398041 0.19796172208148755
100.025 0.981152505036309 0.19323360224997982
100.2 0.9820307737197884 0.18871949160273777
100.375 0.9828500740400312 0.18440510085850376
100.55 0.9836155745493708 0.18027737376141612
100.725 0.9843318902002265 0.176324358148676
100.9 0.9850031518900628 0.1725350926993357
101.075 0.9856330660377376 0.16889950721358743
101.25 0.9862249657948721 0.1654083345893641
101.425 0.9867818552039955 0.1620530329363462
101.6 0.9873064473919665 0.15882571651592042
101.775 0.987801197691651 0.15571909435810727
101.95 0.9882683324616567 0.15272641559921574
102.125 0.9887098742144804 0.14984142068754647
102.3 0.9891276635928522 0.14705829776219775
102.475 0.9895233786315626 0.14437164355526544
102.65 0.9898985516861358 0.14177642830995235
102.825 0.9902545843400092 0.13926796421787735
103.0 0.9905927605659804 0.13684187699582728
103.175 0.9909142583662062 0.13449408023199327
103.35 0.9912201600956253 0.13222075219700546
103.525 0.9915114616270626 0.13001831485172366
103.7 0.9917890805112822 0.1278834148105087
103.875 0.9920538632538447 0.12581290605459078
104.05 0.9923065918136913 0.12380383421084586
104.225 0.9925479894192153 0.12185342223116563
104.4 0.992778725785751 0.11995905733474194
104.575 0.9929994217947601 0.118118279078814
104.75 0.9932106537082177 0.11632876845527532
104.925 0.9934129569614001 0.1145883379033541
105.1 0.9936068295856088 0.11289492215407484
105.275 0.9937927353024281 0.11124656982756666
105.45 0.9939711063212635 0.10964143571301874
105.625 0.994142345876299 0.1080777736623046
105.8 0.9943068305265621 0.10655393004882023
105.975 0.9944649122475965 0.10506833773403339
106.15 0.9946169203330943 0.1036195104997972
106.325 0.994763163127144 0.10220603790271357
106.5 0.9949039296044402 0.1008265805176155
106.675 0.9950394908146551 0.09947986553050342
106.85 0.9951701011979177 0.0981646826585513
107.025 0.9952959997955291 0.0968798803613348
107.2 0.9954174113541544 0.09562436232823623
107.375 0.9955345473392694 0.09439708421044299
107.55 0.9956476068693428 0.09319705058311173
107.725 0.9957567775689271 0.09202331211875539
107.9 0.9958622363581323 0.09087496295244052
108.075 0.9959641501767773 0.08975113822536553
108.25 0.996062676654205 0.08865101179377043
108.425 0.9961579647249771 0.08757379408871138
108.6 0.9962501551991898 0.08651873011636094
108.775 0.9963393812889414 0.08548509758719805
108.95 0.9964257690961105 0.08447220516527627
109.125 0.9965094380622518 0.08347939083026382
109.3 0.9965905013877806 0.0825060203388859
109.475 0.9966690664197766 0.0815514857853411
109.65 0.9967452350108236 0.08061520424809723
109.825 0.9968191038543923 0.07969661652007687
110.0 0.9968907647952324 0.07879518591501503
