! Created with skrf 1.8.0 (http://scikit-rf.org).
# GHz S RI R 1.0 
!freq ReS11 ImS11
1.0 -1.0 -1.6598600639531678e-17
1.1 -1.0 8.495917074598773e-17
1.2 -1.0 5.611101692366067e-17
1.3 -1.0000000000000002 -9.516777371142427e-17
1.4 -1.0 1.1255669158928576e-17
1.5 -0.9999999999999997 -1.9984014443252855e-16
1.6 -1.0000000000000002 -2.1263771036572036e-16
1.7 -1.0 -1.1191251529604595e-17
1.8 -1.0 -1.729981619254931e-18
1.9 -0.9999999999999982 -2.529842383358999e-16
2.0 -1.0 1.774630806542057e-17
2.1 -1.0 5.416742741973919e-17
2.2 -1.0 6.885439585960704e-18
2.3 -1.0 -6.8308131054744945e-18
2.4 -1.0 5.330589546342942e-18
2.5 -1.0 1.3224094047421585e-17
2.6 -1.0 -2.20736577807557e-16
2.7 -1.0 -1.0992179114703251e-17
2.8 -1.0 4.4146196034703926e-16
2.9 -1.0000000000000002 -1.5588873816410308e-17
3.0 -1.0 2.07210461142712e-18
3.1 nan nan
3.2 -1.0 -2.5748499706026025e-18
3.3 -1.0 -8.292521996946665e-20
3.4 -1.0 -6.784736429568254e-18
3.5 -1.0 -8.698850368071772e-19
3.6 -1.0 5.490263320727047e-17
3.7 -1.000000000000014 -1.3112590556286923e-15
3.8 -1.0 -1.3281969517492446e-17
3.9 -1.0 -8.979160403549581e-16
4.0 -1.0 1.068554917875731e-17
4.1 -0.9999999999999997 1.4171204699797855e-16
4.2 -1.0 -3.454886918361806e-18
4.3 -1.0 4.31739362114981e-18
4.4 -1.0 6.906079460600144e-18
4.5 -1.0 1.761069212039854e-17
4.6 -1.0 8.693865196819064e-16
4.7 -1.0000000000000002 -8.987484106670215e-16
4.8 nan nan
4.9 -1.0000000000000002 7.477725544962151e-17
5.0 -1.0 -4.636273221683141e-20
5.1 -1.0 2.334597254911746e-18
5.2 -1.0 -1.768851704905122e-17
5.3 -1.0 8.672096125891514e-19
5.4 nan nan
5.5 -1.0 -3.8033129747983914e-19
5.6 -1.0 3.012721990134791e-16
5.7 -0.9999999999999999 -8.200297236208231e-16
5.8 -1.0 -1.2131165743959555e-18
5.9 -1.0 1.9262545003495877e-18
6.0 -1.0 8.73764959127451e-18
6.1 -1.0 -2.9510379198432913e-18
6.2 -1.0 -1.0020720757367483e-17
6.3 -1.0 2.6191812467225196e-18
6.4 -1.0 1.960422617113057e-18
6.5 -1.0 2.315978754955138e-18
6.6 -1.0 -1.9142999969226734e-17
6.7 -1.0 -3.486410308365898e-18
6.8 -1.0 8.565045779636435e-19
6.9 -1.0 -2.2371992065297356e-19
7.0 -0.9999999999999999 1.1841028844856417e-15
7.1 -0.9999999999999999 1.7750723091686044e-15
7.2 -1.0 5.951858270368446e-16
7.3 -1.0 -6.198596879493686e-19
7.4 -1.0 9.196351764554947e-19
7.5 -1.0 -1.1549725492795974e-18
7.6 -1.0 -7.004767601264781e-18
7.7 -1.0 -8.819465557321843e-16
7.8 -1.0 1.7755977855159141e-15
7.9 -1.0 -1.3503863982631856e-17
8.0 -1.0 -1.3038707727718685e-18
8.1 -1.0 2.6024916841239857e-18
8.2 -1.0 8.678284905295709e-16
8.3 -0.9999999999999942 1.1080452528132693e-15
8.4 -1.0 3.384525282358326e-21
8.5 -1.0000000000000226 2.909774403109994e-15
8.6 -1.0 -6.075747913194124e-18
8.7 -1.0 -1.301465605053009e-18
8.8 -0.9999999999999996 3.4894887725226893e-15
8.9 -1.0 1.6993252104202294e-17
9.0 -1.0 1.2813306159593708e-17
9.1 -1.0 -3.87193931621022e-18
9.2 -1.0 -8.703525354317903e-19
9.3 -1.0 9.705361565857222e-19
9.4 nan nan
9.5 -1.0000000000000002 1.3446478753670974e-17
9.6 -0.9999999999999999 -3.203231849692647e-17
9.7 nan nan
9.8 -1.0000000000000004 -1.8106177934238264e-17
9.9 -1.0 -3.849492738615327e-19
10.0 -1.0 -3.4559770734818402e-18
