! Created with skrf 1.8.0 (http://scikit-rf.org).
# GHz S RI R 1.0 
!freq ReS11 ImS11
75.0 -1.0 5.684451164977703e-15
75.175 -1.0000000000000004 2.8421438328572842e-14
75.35 -1.0 -2.168404343835105e-19
75.525 -1.0 -3.252077209633154e-19
75.7 -1.0 6.70086713183217e-20
75.875 -1.0 1.7344852812771639e-18
76.05 -1.0 -4.3365293159424624e-19
76.225 -1.0 4.336821924872208e-20
76.4 -1.0000000000000009 -2.8420679433378823e-14
76.575 -1.0 -1.421166794210751e-14
76.75 -1.0 -4.818585434076683e-20
76.925 -1.0 -5.421052218618255e-20
77.1 -1.0 -8.672649685446111e-19
77.275 -1.0000000000000002 2.1677508706635638e-19
77.45 -1.0 4.7370238489838224e-15
77.625 -1.0 -3.2522425871699593e-19
77.8 -1.0 -1.0298874385583444e-18
77.975 -1.0 9.098996201467025e-24
78.15 -1.0 1.3552780498909434e-18
78.325 -1.0 -4.736981688284843e-15
78.5 -1.0 1.626303548895786e-19
78.675 -0.9999999999999999 1.457015653578924e-18
78.85 -1.0 -6.504989701606422e-19
79.025 -1.0 5.79046308691356e-24
79.2 -1.0 1.4629203256222396e-18
79.375 -1.0 -1.084202174472826e-19
79.55 -1.0 1.6241049518989926e-14
79.725 -1.0 1.4209878915049503e-14
79.9 -1.0 1.908194340821634e-19
80.075 -1.0000000000000002 -2.84234441083784e-14
80.25 -1.0 -1.4209499527412475e-14
80.425 -1.0 -1.4213077085368683e-14
80.6 -1.0 5.4209643352189746e-20
80.775 -1.0000000000000013 -2.8401169273579103e-14
80.95 -1.0 1.6256169773230243e-18
81.125 -0.9999999999999999 -3.2521226157573077e-19
81.3 -1.0000000000000004 2.8409790917403952e-14
81.475 -1.0 2.7103028172024636e-19
81.65 -1.0 2.8419324559446168e-14
81.825 -1.0000000000000002 1.4207169312674665e-14
82.0 -1.0 -5.421026371773119e-20
82.175 -0.9999999999999992 2.8405240661843117e-14
82.35 -1.0 1.7886536467710423e-18
82.525 -1.0 -1.6263197961899837e-19
82.7 -1.0 2.1683795295210762e-19
82.875 -1.0 4.33707338824274e-19
83.05 -1.0 9.47414004659336e-15
83.225 -1.0 -9.474079824372541e-15
83.4 -1.0 -3.854243500348307e-19
83.575 -1.0 -1.0841963826875367e-19
83.75 -1.0 -3.2089752353172314e-19
83.925 -1.0 -4.737003772522285e-15
84.1 -1.0000000000000004 1.4201760484348827e-14
84.275 -1.0 9.474152103536777e-15
84.45 -1.0 -5.421010861244463e-20
84.625 -1.0 4.878196509949026e-19
84.8 -1.0 2.7104020379757387e-19
84.975 -1.0 7.22854755944091e-20
85.15 -1.0 -1.204662136358396e-19
85.325 nan nan
85.5 -1.0 -1.6262660391500957e-19
85.675 -0.9999999999999999 2.0866127070521055e-18
85.85 nan nan
86.025 -1.0 1.421323996160421e-14
86.2 -1.0 -4.336821924771233e-20
86.375 -1.0 6.195437127063299e-20
86.55 -1.0 -5.421031988558859e-20
86.725 -1.0 -7.960609197065489e-24
86.9 -1.0 1.0408450308550537e-19
87.075 -1.0 1.0842086061223274e-19
87.25 nan nan
87.425 -1.0 4.3367507887821595e-19
87.6 -0.9999999999927242 -7.816024981208958e-14
87.775 -1.0 3.2526975086491853e-19
87.95 -1.0 1.0841856313654568e-19
88.125 nan nan
88.3 -1.0 -1.0842021743464306e-19
88.475 -1.0 1.0842087898433157e-19
88.65 -1.0000000000000002 -7.792634415894629e-18
88.825 -1.0 -1.3548100391085621e-18
89.0 -1.0 7.589156707775136e-19
89.175 nan nan
89.35 -1.0 -9.47359796149897e-15
89.525 -1.0 -4.737208562018806e-15
89.7 -1.0 -1.421042104260403e-14
89.875 -0.9999999999999986 4.258447242812579e-14
90.05 -1.0 1.6262805110790906e-19
90.225 -1.0 7.235851506982638e-24
90.4 -1.0000000000000002 5.378664451705176e-20
90.575 -1.0 2.991763658976636e-15
90.75 nan nan
90.925 -1.0 2.7103787672720202e-20
91.1 -1.0000000000000009 2.8392091208396003e-14
91.275 -1.0000000000000009 -2.8399607137119038e-14
91.45 -0.9999999999999997 -2.5477612677276714e-18
91.625 -1.0 -5.684589929653197e-15
91.8 -1.0000000000000009 1.892261984605417e-14
91.975 nan nan
92.15 -1.0000000000000002 1.4208741367895573e-14
92.325 -1.0 3.794707604279072e-19
92.5 -1.0000000000000004 1.4211830581741422e-14
92.675 -1.0 -2.1681760683248603e-18
92.85 -1.0 -1.6263032594381448e-19
93.025 -1.0000000000000002 -1.421090892365667e-14
93.2 -1.0 1.6263404829208622e-19
93.375 -1.0 1.6246495062399469e-19
93.55 -1.0 -2.841872811758579e-14
93.725 -1.0 1.0841355888639194e-18
93.9 -1.0 1.0842890245881592e-19
94.075 nan nan
94.25 -1.0000000000000002 -1.4209879030845108e-14
94.425 -1.0 1.4211667889579624e-14
94.6 nan nan
94.775 -1.0 -2.1683381727938412e-19
94.95 -0.9999999999999996 2.841325477548231e-14
95.125 -1.0 1.0841173979333629e-19
95.3 -1.0000000000000002 -6.928164037032798e-18
95.475 -1.0 -4.736999757516898e-15
95.65 -1.0 1.0841794244585735e-19
95.825 -1.0 5.420431848304338e-20
96.0 -1.0 1.7342802252011455e-18
96.175 nan nan
96.35 -0.9999999999999999 2.9265467292488156e-18
96.525 -1.0 5.684359228207262e-15
96.7 -1.0 1.4211451005714194e-14
96.875 -1.0 -2.842306469449273e-14
97.05 -1.0 -2.8949333624332814e-24
97.225 -1.0 -1.6263125645256754e-19
97.4 -1.0 -1.0846653184154773e-19
97.575 -1.0 -7.10690559540953e-15
97.75 -0.9999999999999999 7.590503066619087e-19
97.925 -1.0 7.105445992046746e-15
98.1 -1.0 2.9766699672752474e-19
98.275 -1.0000000000000002 1.4209065918092624e-14
98.45 -1.0000000000000002 -2.1548575830670432e-18
98.625 -1.0 2.168390387087992e-19
98.8 -1.0000000000000002 -7.364523515113787e-18
98.975 -0.9999999999999999 1.4211288401447735e-14
99.15 -1.0 3.4695863736351814e-20
99.325 -1.0000000000000002 1.4211464594110855e-14
99.5 -1.0 4.336783874933835e-19
99.675 nan nan
99.85 -1.0 -2.1684374311856766e-19
100.025 -0.9999999999999996 -2.841672269839057e-14
100.2 -1.0 1.4208362644092128e-14
100.375 -1.0 -4.73746755277377e-15
100.55 -1.0 -5.421088404068059e-20
100.725 -1.0 1.0841856311131422e-19
100.9 -1.0 -4.336639297482048e-19
101.075 -0.9999999999999999 6.506701938035843e-19
101.25 nan nan
101.425 -0.9999999999999999 -5.419799122869075e-19
101.6 -1.0 -1.6262672006956035e-19
101.775 -1.0 7.105578127975725e-15
101.95 -1.0 -4.064526325891302e-19
102.125 -1.0000000000000002 1.0841649490266216e-19
102.3 -1.0000000000000002 1.4093218045808115e-18
102.475 -1.0 -2.7105118934371925e-20
102.65 -0.9999999999999997 4.661160867187912e-18
102.825 -1.0 -4.33683890517365e-19
103.0 -1.0000000000097016 1.2631972923756758e-14
103.175 -1.0 2.1683142766364574e-19
103.35 -1.0 1.2347796165130093e-19
103.525 -1.0 -1.387621341170797e-19
103.7 -1.0 4.0653882775721056e-19
103.875 -1.0 2.6882072224272652e-24
104.05 -0.9999999999999978 5.676199160453156e-14
104.225 -1.0 -1.3550430150488889e-20
104.4 nan nan
104.575 -1.0 -5.420994060465851e-20
104.75 -0.9999999999999999 -4.878986808341241e-19
104.925 -1.0 -9.474007549741982e-15
105.1 -1.0 5.419695902483019e-19
105.275 -1.0 3.049886479048258e-24
105.45 -1.0 -1.0840781054351471e-19
105.625 -1.0 2.7104289192276793e-19
105.8 -1.0 3.252569299085358e-19
105.975 -0.9999999999999999 -1.8945567100091385e-14
106.15 -1.0 7.105468013884747e-15
106.325 -1.0 1.3853629962636825e-19
106.5 -1.0 4.06590709685087e-20
106.675 -1.0 1.0841944180773191e-19
106.85 -1.0 1.6263505634634352e-19
107.025 -0.9999999999999999 -4.336835830373434e-19
107.2 -1.0 -5.419977058210662e-19
107.375 nan nan
107.55 -1.0 3.2527181864841873e-19
107.725 -1.0000000000000002 -2.5199613004804594e-18
107.9 -1.0 -4.337007218842793e-19
108.075 -1.0 -1.6059007211496254e-20
108.25 -1.0000000000000002 1.3007465342824447e-18
108.425 -1.0 -1.568101511031193e-14
108.6 -1.0 -1.550901527228864e-25
108.775 -1.0 -2.7105027744484952e-20
108.95 -0.9999999999999999 -8.40267512988505e-19
109.125 -1.0 2.867310811612072e-20
109.3 -1.0 -1.084202172489448e-19
109.475 -1.0 -7.589177397074476e-19
109.65 -1.0 4.0644148795697615e-19
109.825 -1.0 -1.3278535930069983e-18
110.0 -1.0 1.1368759232976004e-14
