! Created with skrf 1.8.0 (http://scikit-rf.org).
# GHz S RI R 1.0 
!freq ReS11 ImS11
75.0 0.9979729391930013 -0.06363870979904959
75.175 0.9979156191650714 -0.06453129315805786
75.35 0.9978565312333658 -0.06543861100258805
75.525 0.9977956028056533 -0.06636114571125534
75.7 0.9977327575419515 -0.06729939825487691
75.875 0.9976679151209811 -0.06825388918439597
76.05 0.9976009909888037 -0.06922515967843204
76.225 0.9975318960892743 -0.0702137726545403
76.4 0.9974605365743975 -0.07122031395045206
76.575 0.997386813491843 -0.07224539357720053
76.75 0.9973106224502075 -0.07328964705405944
76.925 0.9972318532561053 -0.07435373682724844
77.1 0.9971503895251084 -0.07543835378262292
77.275 0.997066108260087 -0.07654421885758407
77.45 0.9969788793968669 -0.07767208475924209
77.625 0.9968885653128091 -0.07882273780113552
77.8 0.9967950202949254 -0.07999699986296016
77.975 0.9966980899635952 -0.08119573048812972
78.15 0.9965976106495141 -0.0824198291269409
78.325 0.9964934087152256 -0.08367023753963151
78.5 0.9963852998212078 -0.08494794237182174
78.675 0.9962730881251296 -0.08625397791791431
78.85 0.9961565654140331 -0.0875894290875087
79.025 0.9960355101555028 -0.08895543459324422
79.2 0.9959096864657698 -0.09035319038027731
79.375 0.9957788429834492 -0.09178395331718872
79.55 0.9956427116364609 -0.09324904517467583
79.725 0.9955010062955921 -0.09474985691564561
79.9 0.9953534212997871 -0.0962878533270544
80.075 0.9951996298380682 -0.0978645780267576
80.25 0.995039282173786 -0.0994816588776605
80.425 0.9948720036928741 -0.10114081385300613
80.6 0.9946973927566936 -0.10284385739348971
80.775 0.9945150183336873 -0.10459270730681647
80.95 0.9943244173894544 -0.10638939226229985
81.125 0.9941250919981419 -0.10823605994536403
81.3 0.9939165061517866 -0.11013498593448909
81.475 0.9936980822181329 -0.1120885833817005
81.65 0.9934691970148327 -0.11409941357922027
81.825 0.9932291774412708 -0.11617019750756685
82.0 0.9929772956185112 -0.11830382847739832
82.175 0.9927127634661528 -0.12050338598096691
82.35 0.9924347266468544 -0.12277215089176682
82.525 0.9921422577868751 -0.12511362217197033
82.7 0.9918343488792678 -0.12753153525749655
82.875 0.9915099027473044 -0.13002988232089557
83.05 0.9911677234396307 -0.13261293464430113
83.225 0.9908065054000473 -0.13528526735212737
83.4 0.9904248212278625 -0.13805178680386496
83.575 0.9900211078207788 -0.1409177609837088
83.75 0.989593650645431 -0.1438888532690495
83.925 0.9891405658504926 -0.14697116002914434
84.1 0.9886597798684799 -0.15017125255743324
84.275 0.9881490061008573 -0.15349622392915074
84.45 0.9876057182077433 -0.1569537414773859
84.625 0.9870271194090638 -0.16055210565735306
84.8 0.9864101071291917 -0.16430031624108726
84.975 0.9857512321386085 -0.1682081469027112
85.15 0.9850466512061826 -0.17228622945148037
85.325 0.9842920720668098 -0.17654614918079833
85.5 0.9834826892382404 -0.18100055306213192
85.675 0.982613108918857 -0.1856632728199249
85.85 0.98167726080474 -0.1905494652857796
86.025 0.9806682941516591 -0.19567577289401586
86.2 0.9795784548234073 -0.20106050770367007
86.375 0.9783989392271141 -0.20672386299586082
86.55 0.9771197200952426 -0.21268815728397095
86.725 0.9757293377502629 -0.21897811654607593
86.9 0.9742146488528365 -0.2256212016758497
87.075 0.9725605225242563 -0.23264798958746497
87.25 0.9707494709030722 -0.24009261821204353
87.425 0.9687611976163876 -0.24799330778518186
87.6 0.9665720427569658 -0.2563929735460878
87.775 0.9641542965797635 -0.2653399482900555
87.95 0.9614753455130122 -0.27488883725535007
88.125 0.9584966023993853 -0.28510153290280077
88.3 0.9551721570031593 -0.29604842318539204
88.475 0.9514470608939214 -0.3078098342669421
88.65 0.9472551303783563 -0.320477757381925
88.825 0.9425161083851187 -0.3341579194916162
89.0 0.9371319656087568 -0.3489722682600828
89.175 0.9309820342393766 -0.3650619523949973
89.35 0.9239165416470018 -0.38259088575379185
89.525 0.9157479266278447 -0.40174998214651225
89.7 0.9062390468474512 -0.42276212521255396
89.875 0.8950869753269943 -0.44588787062874835
90.05 0.881900460798246 -0.4714317182557408
90.225 0.8661681734048096 -0.4997484449207036
90.4 0.8472133876313521 -0.5312482636227127
90.575 0.8241284835087133 -0.5663980847466602
90.75 0.7956791617942509 -0.6057131050616165
90.925 0.760163048364096 -0.6497266892087181
91.1 0.7152000419254615 -0.6989135765068621
91.275 0.6574232445074663 -0.7535145934431677
91.45 0.5820357623389772 -0.8131553934868833
91.625 0.4822244281694987 -0.8760387901004494
91.8 0.3485582863883756 -0.9372766537911736
91.975 0.16899041455532782 -0.9856050653124754
92.15 -0.06848467954234494 -0.9976361901096442
92.325 -0.3653896820601255 -0.9308328536349415
92.5 -0.6877070422767472 -0.7259538973834341
92.675 -0.9379459316913927 -0.3466991177744505
92.85 -0.9896542139410626 0.1432692654123905
93.025 -0.8114559746788529 0.5843681887708829
93.2 -0.5057830805851018 0.8626352431910327
93.375 -0.19249566537606733 0.9812801678729915
93.55 0.06998922681952485 0.9975342501661397
93.725 0.27217623260687823 0.9622365085138718
93.9 0.42347047006847527 0.9059007580106206
94.075 0.5363448224671847 0.8439910807931329
94.25 0.6212976310371798 0.7835677617887629
94.425 0.686112507516548 0.7274893065847086
94.6 0.736317640802543 0.6766305117055542
94.775 0.7757978975566798 0.6309764497265077
94.95 0.8072932858527762 0.590145843337903
95.125 0.8327560280371327 0.5536358875400225
95.3 0.853595183357914 0.5209329700909257
95.475 0.8708420266525683 0.4915593097981246
95.65 0.8852619436896652 0.4650893395138949
95.825 0.8974307151754631 0.4411521974594437
96.0 0.907787089959017 0.419428234687641
96.175 0.9166694661132307 0.39964332480854325
96.35 0.924341813619255 0.38156274237231147
96.525 0.9310122293577894 0.36498538651965784
96.7 0.9368463845075186 0.34973864562864587
96.875 0.9419773873377418 0.3356739710310609
97.05 0.9465130996999338 0.3226631259056842
97.225 0.9505416234172787 0.31059503541051303
97.4 0.9541354565274205 0.2993731537930518
97.575 0.957354672291368 0.2889132674769827
97.75 0.9602493729102156 0.27914166178350414
97.925 0.9628615996921145 0.26999358911042026
98.1 0.965226832148189 0.2614119863759314
98.275 0.9673751734411332 0.2533463983905246
98.45 0.9693322946155026 0.24575207144126698
98.625 0.9711201917904597 0.23858918783147331
98.8 0.972757797303893 0.23182221732765737
98.975 0.9742614759777016 0.22541936589368267
99.15 0.9756454304447367 0.21935210555173373
99.325 0.9769220340030763 0.21359477212204306
99.5 0.9781021054071867 0.20812421995097624
99.675 0.9791951368152819 0.2029195245908833
99.85 0.9802094838082457 0.19796172600153644
100.025 0.9811525244744405 0.19323360607822432
100.2 0.9820307931839453 0.18871949534320848
100.375 0.9828500935284791 0.1844051045149726
100.55 0.9836155940605268 0.18027737733741842
100.725 0.984331909732642 0.17632436164752857
100.9 0.9850031714424102 0.17253509612415488
101.075 0.9856330856087963 0.1688995105673038
101.25 0.9862249853835234 0.16540833787473808
101.425 0.9867818748092019 0.16205303615597855
101.6 0.9873064670127761 0.15882571967226644
101.775 0.9878012173271794 0.1557190974534855
101.95 0.9882683521110858 0.15272641863581862
102.125 0.9887098938770545 0.14984142366744957
102.3 0.9891276832678662 0.14705830068736686
102.475 0.9895233983183652 0.14437164642756506
102.65 0.9898985713841155 0.14177643113115138
102.825 0.9902546040486003 0.13926796698965643
103.0 0.9905927802846513 0.13684187971978368
103.175 0.9909142780944609 0.13449408290964676
103.35 0.9912201798330031 0.13222075482980356
103.525 0.9915114813731306 0.13001831744104525
103.7 0.9917891002656312 0.1278834173576684
103.875 0.9920538830160944 0.12581290856084337
104.05 0.9923066115834834 0.12380383667738958
104.225 0.9925480091962132 0.12185342465914537
104.4 0.9927787455696361 0.11995905972525217
104.575 0.9929994415852352 0.11811828143290233
104.75 0.9932106735050005 0.11632877077394443
104.925 0.9934129767642255 0.1145883401875646
105.1 0.9936068493942238 0.11289492440474733
105.275 0.9937927551165978 0.1112465720455844
105.45 0.9939711261407614 0.10964143789922878
105.625 0.9941423657009154 0.10807777581752098
105.8 0.9943068503560932 0.10655393217382411
105.975 0.9944649320818516 0.10506833982957603
106.15 0.9946169401718934 0.10361951256660104
106.325 0.9947631829703152 0.10220603994147352
106.5 0.99490394945182 0.10082658252900051
106.675 0.9950395106660876 0.0994798675151575
106.85 0.9951701210532562 0.09816468461709524
107.025 0.9952960196546312 0.09687988229436659
107.2 0.995417431216889 0.09562436423633294
107.375 0.9955345672055075 0.09439708609416089
107.55 0.9956476267389612 0.09319705244298779
107.725 0.995756797441812 0.0920233139553083
107.9 0.9958622562341726 0.090874964766171
108.075 0.9959641700558665 0.08975114001675746
108.25 0.9960626965362409 0.08865101356329146
108.425 0.9961579846098648 0.08757379583681399
108.6 0.9962501750868371 0.08651873184348263
108.775 0.996339401179258 0.08548509929376202
108.95 0.9964257889890132 0.08447220685169252
109.125 0.9965094579576579 0.083479392496929
109.3 0.9965905212856131 0.08250602198618454
109.475 0.9966690863199623 0.08155148741364576
109.65 0.9967452549132889 0.08061520585776881
109.825 0.9968191237590673 0.0796966181114653
110.0 0.9968907847020528 0.07879518748845998
